 ****** HSPICE -- K-2015.06-3 win64 (Aug  6 2015) ******                        
  Copyright (c) 1986 - 2022 by Synopsys, Inc. All Rights Reserved.              
  This software and the associated documentation are proprietary
  to Synopsys, Inc. This software may only be used in accordance
  with the terms and conditions of a written license agreement with
  Synopsys, Inc. All other use, reproduction, or distribution of
  this software is strictly prohibited.
  Input File: csamp_dc.sp                                                       
  Command line options: D:\synopsys\Hspice_K-2015.06-3\WIN64\hspice.exe -i csamp_dc.sp -o E:\matlab_workspace\codes for mooc of electronic circuit\chap08-06\csamp_dc.lis
  lic:  
  lic: FLEXlm: v11.2.1 
  lic: USER:   Long'Yihao           HOSTNAME: Yihao-Long 
  lic: HOSTID: "b07d6447a739"       PID:      19812 
  lic: Using FLEXlm license file: 
  lic: 27000@Yihao-Long 
  lic: Checkout 1 hspice 
  lic: License/Maintenance for hspice will expire on 30-dec-2030/2029.2029 
  lic: 1(in_use)/99(total) FLOATING license(s) on SERVER 27000@Yihao-Long 
  lic:   
 Init: read install configuration file: D:\synopsys\Hspice_K-2015.06-3\meta.cfg
1****** HSPICE -- K-2015.06-3 win64 (Aug  6 2015) ******                        
 ******  
 cs_amp_dc

 ****** mos   model parameters tnom=  25.000 temp=  25.000 ******
 ***************************************************************************
 *** common model parameters  model name:   0:n08      model type:nmos   ***
 ***************************************************************************
     names  values   units     names  values   units     names  values   units
     -----  ------   -----     -----  ------   -----     -----  ------   -----

   1*** geometry parameters ***
       ld=  16.00n meters      lmlt=   1.00                wd=   0.    meters 
     wmlt=   1.00                xl=   0.    meters        xw=   0.    meters 
     lref=   0.    meters      wref=   0.    meters      lref=   0.    meters 
     wref=   0.    meters     xlref=   0.    meters     xwref=   0.    meters 
     lmin=   0.    meters      wmin=   0.    meters      lmax=   0.    meters 
     wmax=   0.    meters 

   2*** threshold voltage parameters ***
      vto= 700.00m volts        nss=   0.    1/cm**2      tpg=   1.00         
      phi= 700.00m volts      gamma= 400.00m v**0.5      bulk=  gnd           
    ngate=   0.    cm**3       nsub= 2.9e+16 1/cm**3   delvto=   0.    volts  

   3*** gate overlap capacitance parameters ***
     cgbo= 700.00p f/meter     cgdo= 220.00p f/meter     cgso= 220.00p f/meter
     meto=   0.    meters 

   4*** gate capacitance parameters ***
    capop=   2.00               cf1=   0.    volts        cf2= 100.00m volts  
      cf3=   1.00  volts        cf4=  50.00               cf5= 666.67m        
      cf6= 500.00               xqc= 500.00m              tox=  14.00n meters 
      cox=   2.47m f/m**2 

   5*** diffusion parasitic parameters ***
      acm=   0.                  is=  10.00f amps          js=   0.    a/m**2 
      jsw=   0.    amp/m        nds=   1.00               cbd=   0.    farad  
      cbs=   0.    farad         cj= 770.00u f/m**2      cjsw= 380.00p f/m    
   cjgate= 380.00p f/m           mj= 500.00m             mjsw= 380.00m        
       pb= 800.00m volts        php= 800.00m volts         tt=   0.    secs   
     hdif=   0.    meters      ldif=   0.    meters        rd=   0.    ohms   
       rs=   0.    ohms         rsh=   0.    ohms/sq       fc=   0.           
    alpha=   0.                 vcr=   0.    volts      iirat=   0.           
      rdc=   0.    ohms         rsc=   0.    ohms           n=   1.00         
     vnds=  -1.00  volts  

   6*** temperature effect parameters ***
     tlev=   0.               tlevc=   0.                  eg=   1.11  ev     
     gap1= 702.00u ev/deg      gap2=   1.11k deg          xti=   0.           
      bex=  -1.50               tcv=   0.    v/deg k      trd=   0.    /deg   
      trs=   0.    /deg         cta=   0.    /deg         ctp=   0.    /deg   

   7*** noise parameters ***
       kf=   0.                  af=   1.00              nlev=   2.00         
   gdsnoi=   1.00         

   ***  level  1  model parameters  ***

   lambda=  40.00m /v            kp= 110.00u a/v**2 
  
      
 *****************************************************************
 ******  option summary
 ******
 runlvl  = 3         bypass  = 2         
 **info** dc convergence successful at Newton-Raphson method 
1****** HSPICE -- K-2015.06-3 win64 (Aug  6 2015) ******                        
 ******  
 cs_amp_dc

 ****** operating point information tnom=  25.000 temp=  25.000 ******
 ****** operating point status is all       simulation time is     0.     
    node    =voltage      node    =voltage      node    =voltage

 +0:1       =   2.0000  0:2       =   2.8599  0:3       =   5.0000 


 **** voltage sources

 subckt                        
 element  0:vdd      0:vin     
  volts      5.0000     2.0000 
  current   -1.0701m    0.     
  power      5.3504m    0.     

     total voltage source power dissipation=    5.3504m       watts



 **** resistors

 subckt             
 element  0:rd      
  r value    2.0000k
  v drop     2.1401 
  current    1.0701m
  power      2.2901m



 **** mosfets


 subckt             
 element  0:m1      
 model    0:n08     
 region     Saturati
  id         1.0701m
  ibs        0.     
  ibd      -28.5986f
  vgs        2.0000 
  vds        2.8599 
  vbs        0.     
  vth      700.0000m
  vdsat      1.3000 
  vod        1.3000 
  beta       1.2664m
  gam eff  400.0000m
  gm         1.6463m
  gds       38.4091u
  gmb      393.5324u
  cdtot      2.2910f
  cgtot     21.1559f
  cstot     18.1174f
  cbtot    747.3930a
  cgs       18.1174f
  cgd        2.2910f




          ***** job concluded
1****** HSPICE -- K-2015.06-3 win64 (Aug  6 2015) ******                        
 ******  
 cs_amp_dc

 ****** job statistics summary tnom=  25.000 temp=  25.000 ******

  ******  HSPICE Threads Information  ******

  Command Line Threads Count :     1
  Available CPU Count        :    16
  Actual Threads Count       :     1


  ******  Circuit Statistics  ******
  # nodes       =       4 # elements   =       4
  # resistors   =       1 # capacitors =       0 # inductors   =       0
  # mutual_inds =       0 # vccs       =       0 # vcvs        =       0
  # cccs        =       0 # ccvs       =       0 # volt_srcs   =       2
  # curr_srcs   =       0 # diodes     =       0 # bjts        =       0
  # jfets       =       0 # mosfets    =       1 # U elements  =       0
  # T elements  =       0 # W elements =       0 # B elements  =       0
  # S elements  =       0 # P elements =       0 # va device   =       0
  # vector_srcs =       0 # N elements =       0


  ******  Runtime Statistics (seconds)  ******

  analysis           time    # points   tot. iter  conv.iter
  op point           0.00           1           5
  dc sweep           0.00          51         140
  readin             0.01
  errchk             0.00
  setup              0.00
  output             0.00


           peak memory used         50.73 megabytes
           total cpu time            0.02 seconds
           total elapsed time        0.16 seconds
           job started at     15:59:57 11/15/2022
           job ended   at     15:59:57 11/15/2022


  lic: Release hspice token(s) 
 lic: total license checkout elapse time:        0.14(s)
